freq (Hz),/voutdiff1 Vcm -0.5  (V),/voutdiff1 Vcm 0  (V),/voutdiff1 Vcm 0.5  (V)
1.00000,37.2879,37.5138,37.7220
1.02329,37.2879,37.5138,37.7220
1.04713,37.2879,37.5138,37.7220
1.07152,37.2879,37.5138,37.7220
1.09648,37.2879,37.5138,37.7220
1.12202,37.2879,37.5138,37.7220
1.14815,37.2879,37.5138,37.7220
1.17490,37.2879,37.5138,37.7220
1.20226,37.2879,37.5138,37.7220
1.23027,37.2879,37.5138,37.7220
1.25893,37.2879,37.5138,37.7220
1.28825,37.2879,37.5138,37.7220
1.31826,37.2879,37.5138,37.7220
1.34896,37.2879,37.5138,37.7220
1.38038,37.2879,37.5138,37.7220
1.41254,37.2879,37.5138,37.7220
1.44544,37.2879,37.5138,37.7220
1.47911,37.2879,37.5138,37.7220
1.51356,37.2879,37.5138,37.7220
1.54882,37.2879,37.5138,37.7220
1.58489,37.2879,37.5138,37.7220
1.62181,37.2879,37.5138,37.7220
1.65959,37.2879,37.5138,37.7220
1.69824,37.2879,37.5138,37.7220
1.73780,37.2879,37.5138,37.7220
1.77828,37.2879,37.5138,37.7220
1.81970,37.2879,37.5138,37.7220
1.86209,37.2879,37.5138,37.7220
1.90546,37.2879,37.5138,37.7220
1.94984,37.2879,37.5138,37.7220
1.99526,37.2879,37.5138,37.7220
2.04174,37.2879,37.5138,37.7220
2.08930,37.2879,37.5138,37.7220
2.13796,37.2879,37.5138,37.7220
2.18776,37.2879,37.5138,37.7220
2.23872,37.2879,37.5138,37.7220
2.29087,37.2879,37.5138,37.7220
2.34423,37.2879,37.5138,37.7220
2.39883,37.2879,37.5138,37.7220
2.45471,37.2879,37.5138,37.7220
2.51189,37.2879,37.5138,37.7220
2.57040,37.2879,37.5138,37.7220
2.63027,37.2879,37.5138,37.7220
2.69153,37.2879,37.5138,37.7220
2.75423,37.2879,37.5138,37.7220
2.81838,37.2879,37.5138,37.7220
2.88403,37.2879,37.5138,37.7220
2.95121,37.2879,37.5138,37.7220
3.01995,37.2879,37.5138,37.7220
3.09030,37.2879,37.5138,37.7220
3.16228,37.2879,37.5138,37.7220
3.23594,37.2879,37.5138,37.7220
3.31131,37.2879,37.5138,37.7220
3.38844,37.2879,37.5138,37.7220
3.46737,37.2879,37.5138,37.7220
3.54813,37.2879,37.5138,37.7220
3.63078,37.2879,37.5138,37.7220
3.71535,37.2879,37.5138,37.7220
3.80189,37.2879,37.5138,37.7220
3.89045,37.2879,37.5138,37.7220
3.98107,37.2879,37.5138,37.7220
4.07380,37.2879,37.5138,37.7220
4.16869,37.2879,37.5138,37.7220
4.26580,37.2879,37.5138,37.7220
4.36516,37.2879,37.5138,37.7220
4.46684,37.2879,37.5138,37.7220
4.57088,37.2879,37.5138,37.7220
4.67735,37.2879,37.5138,37.7220
4.78630,37.2879,37.5138,37.7220
4.89779,37.2879,37.5138,37.7220
5.01187,37.2879,37.5138,37.7220
5.12861,37.2879,37.5138,37.7220
5.24807,37.2879,37.5138,37.7220
5.37032,37.2879,37.5138,37.7220
5.49541,37.2879,37.5138,37.7220
5.62341,37.2879,37.5138,37.7220
5.75440,37.2879,37.5138,37.7220
5.88844,37.2879,37.5138,37.7220
6.02560,37.2879,37.5138,37.7220
6.16595,37.2879,37.5138,37.7220
6.30957,37.2879,37.5138,37.7220
6.45654,37.2879,37.5138,37.7220
6.60693,37.2879,37.5138,37.7220
6.76083,37.2879,37.5138,37.7220
6.91831,37.2879,37.5138,37.7220
7.07946,37.2879,37.5138,37.7220
7.24436,37.2879,37.5138,37.7220
7.41310,37.2879,37.5138,37.7220
7.58578,37.2879,37.5138,37.7220
7.76247,37.2879,37.5138,37.7220
7.94328,37.2879,37.5138,37.7220
8.12831,37.2879,37.5138,37.7220
8.31764,37.2879,37.5138,37.7220
8.51138,37.2879,37.5138,37.7220
8.70964,37.2879,37.5138,37.7220
8.91251,37.2879,37.5138,37.7220
9.12011,37.2879,37.5138,37.7220
9.33254,37.2879,37.5138,37.7220
9.54993,37.2879,37.5138,37.7220
9.77237,37.2879,37.5138,37.7220
10.0000,37.2879,37.5138,37.7220
10.2329,37.2879,37.5138,37.7220
10.4713,37.2879,37.5138,37.7220
10.7152,37.2879,37.5138,37.7220
10.9648,37.2879,37.5138,37.7220
11.2202,37.2879,37.5138,37.7220
11.4815,37.2879,37.5138,37.7220
11.7490,37.2879,37.5138,37.7220
12.0226,37.2879,37.5138,37.7220
12.3027,37.2879,37.5138,37.7220
12.5893,37.2879,37.5138,37.7220
12.8825,37.2879,37.5138,37.7220
13.1826,37.2879,37.5138,37.7220
13.4896,37.2879,37.5138,37.7220
13.8038,37.2879,37.5138,37.7220
14.1254,37.2879,37.5138,37.7220
14.4544,37.2879,37.5138,37.7220
14.7911,37.2879,37.5138,37.7220
15.1356,37.2879,37.5138,37.7220
15.4882,37.2879,37.5138,37.7220
15.8489,37.2879,37.5138,37.7220
16.2181,37.2879,37.5138,37.7220
16.5959,37.2879,37.5138,37.7220
16.9824,37.2879,37.5138,37.7220
17.3780,37.2879,37.5138,37.7220
17.7828,37.2879,37.5138,37.7220
18.1970,37.2879,37.5138,37.7220
18.6209,37.2879,37.5138,37.7220
19.0546,37.2879,37.5138,37.7220
19.4984,37.2879,37.5138,37.7220
19.9526,37.2879,37.5138,37.7220
20.4174,37.2879,37.5138,37.7220
20.8930,37.2879,37.5138,37.7220
21.3796,37.2879,37.5138,37.7220
21.8776,37.2879,37.5138,37.7220
22.3872,37.2879,37.5138,37.7220
22.9087,37.2879,37.5138,37.7220
23.4423,37.2879,37.5138,37.7220
23.9883,37.2879,37.5138,37.7220
24.5471,37.2879,37.5138,37.7220
25.1189,37.2879,37.5138,37.7220
25.7040,37.2879,37.5138,37.7220
26.3027,37.2879,37.5138,37.7220
26.9153,37.2879,37.5138,37.7220
27.5423,37.2879,37.5138,37.7220
28.1838,37.2879,37.5138,37.7220
28.8403,37.2879,37.5138,37.7220
29.5121,37.2879,37.5138,37.7220
30.1995,37.2879,37.5138,37.7220
30.9030,37.2879,37.5138,37.7220
31.6228,37.2879,37.5138,37.7220
32.3594,37.2879,37.5138,37.7220
33.1131,37.2879,37.5138,37.7220
33.8844,37.2879,37.5138,37.7220
34.6737,37.2879,37.5138,37.7220
35.4813,37.2879,37.5138,37.7220
36.3078,37.2879,37.5138,37.7220
37.1535,37.2879,37.5138,37.7220
38.0189,37.2879,37.5138,37.7220
38.9045,37.2879,37.5138,37.7220
39.8107,37.2879,37.5138,37.7220
40.7380,37.2879,37.5138,37.7220
41.6869,37.2879,37.5138,37.7220
42.6580,37.2879,37.5138,37.7220
43.6516,37.2879,37.5138,37.7220
44.6684,37.2879,37.5138,37.7220
45.7088,37.2879,37.5138,37.7220
46.7735,37.2879,37.5138,37.7220
47.8630,37.2879,37.5138,37.7220
48.9779,37.2879,37.5138,37.7220
50.1187,37.2879,37.5138,37.7220
51.2861,37.2879,37.5138,37.7220
52.4807,37.2879,37.5138,37.7220
53.7032,37.2879,37.5138,37.7220
54.9541,37.2879,37.5138,37.7220
56.2341,37.2879,37.5138,37.7220
57.5440,37.2879,37.5138,37.7220
58.8844,37.2879,37.5138,37.7220
60.2560,37.2879,37.5138,37.7220
61.6595,37.2879,37.5138,37.7220
63.0957,37.2879,37.5138,37.7220
64.5654,37.2879,37.5138,37.7220
66.0693,37.2879,37.5138,37.7220
67.6083,37.2879,37.5138,37.7220
69.1831,37.2879,37.5138,37.7220
70.7946,37.2879,37.5138,37.7220
72.4436,37.2879,37.5138,37.7220
74.1310,37.2879,37.5138,37.7220
75.8578,37.2879,37.5138,37.7220
77.6247,37.2879,37.5138,37.7220
79.4328,37.2879,37.5138,37.7220
81.2831,37.2879,37.5138,37.7220
83.1764,37.2879,37.5138,37.7220
85.1138,37.2879,37.5138,37.7220
87.0964,37.2879,37.5138,37.7220
89.1251,37.2879,37.5138,37.7220
91.2011,37.2879,37.5138,37.7220
93.3254,37.2879,37.5138,37.7220
95.4993,37.2879,37.5138,37.7220
97.7237,37.2879,37.5138,37.7220
100.000,37.2879,37.5138,37.7220
102.329,37.2879,37.5138,37.7220
104.713,37.2879,37.5138,37.7220
107.152,37.2879,37.5138,37.7220
109.648,37.2879,37.5138,37.7220
112.202,37.2879,37.5138,37.7220
114.815,37.2879,37.5138,37.7220
117.490,37.2879,37.5138,37.7220
120.226,37.2879,37.5138,37.7220
123.027,37.2879,37.5138,37.7220
125.893,37.2879,37.5138,37.7220
128.825,37.2879,37.5138,37.7220
131.826,37.2879,37.5138,37.7220
134.896,37.2879,37.5138,37.7220
138.038,37.2879,37.5138,37.7220
141.254,37.2879,37.5138,37.7220
144.544,37.2879,37.5138,37.7220
147.911,37.2879,37.5138,37.7220
151.356,37.2879,37.5138,37.7220
154.882,37.2879,37.5138,37.7220
158.489,37.2879,37.5138,37.7220
162.181,37.2879,37.5138,37.7220
165.959,37.2879,37.5138,37.7220
169.824,37.2879,37.5138,37.7220
173.780,37.2879,37.5138,37.7220
177.828,37.2879,37.5138,37.7220
181.970,37.2879,37.5138,37.7220
186.209,37.2879,37.5138,37.7220
190.546,37.2879,37.5138,37.7220
194.984,37.2879,37.5138,37.7220
199.526,37.2879,37.5138,37.7220
204.174,37.2879,37.5138,37.7220
208.930,37.2879,37.5138,37.7220
213.796,37.2879,37.5138,37.7220
218.776,37.2879,37.5138,37.7220
223.872,37.2879,37.5138,37.7220
229.087,37.2879,37.5138,37.7220
234.423,37.2879,37.5138,37.7220
239.883,37.2879,37.5138,37.7220
245.471,37.2879,37.5138,37.7220
251.189,37.2879,37.5138,37.7220
257.040,37.2879,37.5138,37.7220
263.027,37.2879,37.5138,37.7220
269.153,37.2879,37.5138,37.7220
275.423,37.2879,37.5138,37.7220
281.838,37.2879,37.5138,37.7220
288.403,37.2879,37.5138,37.7220
295.121,37.2879,37.5138,37.7220
301.995,37.2879,37.5138,37.7220
309.030,37.2879,37.5138,37.7220
316.228,37.2879,37.5138,37.7220
323.594,37.2879,37.5138,37.7220
331.131,37.2879,37.5138,37.7220
338.844,37.2879,37.5138,37.7220
346.737,37.2879,37.5138,37.7220
354.813,37.2879,37.5138,37.7220
363.078,37.2879,37.5138,37.7220
371.535,37.2879,37.5138,37.7220
380.189,37.2879,37.5138,37.7220
389.045,37.2879,37.5138,37.7220
398.107,37.2879,37.5138,37.7220
407.380,37.2879,37.5138,37.7220
416.869,37.2879,37.5138,37.7220
426.580,37.2879,37.5138,37.7220
436.516,37.2879,37.5138,37.7220
446.684,37.2879,37.5138,37.7220
457.088,37.2879,37.5138,37.7220
467.735,37.2879,37.5138,37.7220
478.630,37.2879,37.5138,37.7220
489.779,37.2879,37.5138,37.7220
501.187,37.2879,37.5138,37.7220
512.861,37.2879,37.5138,37.7220
524.807,37.2879,37.5138,37.7220
537.032,37.2879,37.5138,37.7220
549.541,37.2879,37.5138,37.7220
562.341,37.2879,37.5138,37.7220
575.440,37.2879,37.5138,37.7220
588.844,37.2879,37.5138,37.7220
602.560,37.2879,37.5138,37.7220
616.595,37.2879,37.5138,37.7220
630.957,37.2879,37.5138,37.7220
645.654,37.2879,37.5138,37.7220
660.693,37.2879,37.5138,37.7220
676.083,37.2879,37.5138,37.7220
691.831,37.2879,37.5138,37.7220
707.946,37.2879,37.5138,37.7220
724.436,37.2879,37.5138,37.7220
741.310,37.2879,37.5138,37.7220
758.578,37.2879,37.5138,37.7220
776.247,37.2879,37.5138,37.7220
794.328,37.2879,37.5138,37.7220
812.831,37.2879,37.5138,37.7220
831.764,37.2879,37.5138,37.7220
851.138,37.2879,37.5138,37.7220
870.964,37.2879,37.5138,37.7220
891.251,37.2879,37.5138,37.7220
912.011,37.2879,37.5138,37.7220
933.254,37.2879,37.5138,37.7220
954.993,37.2879,37.5138,37.7220
977.237,37.2879,37.5138,37.7220
1.00000E3,37.2879,37.5138,37.7220
1.02329E3,37.2879,37.5138,37.7220
1.04713E3,37.2879,37.5138,37.7220
1.07152E3,37.2879,37.5138,37.7220
1.09648E3,37.2879,37.5138,37.7220
1.12202E3,37.2879,37.5138,37.7220
1.14815E3,37.2879,37.5138,37.7220
1.17490E3,37.2879,37.5138,37.7220
1.20226E3,37.2879,37.5138,37.7220
1.23027E3,37.2879,37.5138,37.7220
1.25893E3,37.2879,37.5138,37.7220
1.28825E3,37.2879,37.5138,37.7220
1.31826E3,37.2879,37.5138,37.7220
1.34896E3,37.2879,37.5138,37.7220
1.38038E3,37.2879,37.5138,37.7220
1.41254E3,37.2879,37.5138,37.7220
1.44544E3,37.2879,37.5138,37.7220
1.47911E3,37.2879,37.5138,37.7220
1.51356E3,37.2879,37.5138,37.7220
1.54882E3,37.2879,37.5138,37.7220
1.58489E3,37.2879,37.5138,37.7220
1.62181E3,37.2879,37.5138,37.7220
1.65959E3,37.2879,37.5138,37.7220
1.69824E3,37.2879,37.5138,37.7220
1.73780E3,37.2879,37.5138,37.7220
1.77828E3,37.2879,37.5138,37.7220
1.81970E3,37.2879,37.5138,37.7220
1.86209E3,37.2879,37.5138,37.7220
1.90546E3,37.2879,37.5138,37.7220
1.94984E3,37.2879,37.5138,37.7220
1.99526E3,37.2879,37.5138,37.7220
2.04174E3,37.2879,37.5138,37.7220
2.08930E3,37.2879,37.5138,37.7220
2.13796E3,37.2879,37.5138,37.7220
2.18776E3,37.2879,37.5138,37.7220
2.23872E3,37.2879,37.5138,37.7220
2.29087E3,37.2879,37.5138,37.7220
2.34423E3,37.2879,37.5138,37.7220
2.39883E3,37.2879,37.5138,37.7220
2.45471E3,37.2879,37.5138,37.7220
2.51189E3,37.2879,37.5138,37.7220
2.57040E3,37.2879,37.5138,37.7220
2.63027E3,37.2879,37.5138,37.7220
2.69153E3,37.2879,37.5138,37.7220
2.75423E3,37.2879,37.5138,37.7220
2.81838E3,37.2879,37.5138,37.7220
2.88403E3,37.2879,37.5138,37.7220
2.95121E3,37.2879,37.5138,37.7220
3.01995E3,37.2879,37.5138,37.7220
3.09030E3,37.2879,37.5138,37.7220
3.16228E3,37.2879,37.5138,37.7220
3.23594E3,37.2879,37.5138,37.7220
3.31131E3,37.2879,37.5138,37.7220
3.38844E3,37.2879,37.5138,37.7220
3.46737E3,37.2879,37.5138,37.7220
3.54813E3,37.2879,37.5138,37.7220
3.63078E3,37.2879,37.5138,37.7220
3.71535E3,37.2879,37.5138,37.7220
3.80189E3,37.2879,37.5138,37.7220
3.89045E3,37.2879,37.5138,37.7220
3.98107E3,37.2879,37.5138,37.7220
4.07380E3,37.2879,37.5138,37.7220
4.16869E3,37.2879,37.5138,37.7220
4.26580E3,37.2879,37.5138,37.7220
4.36516E3,37.2879,37.5138,37.7220
4.46684E3,37.2879,37.5138,37.7220
4.57088E3,37.2879,37.5138,37.7220
4.67735E3,37.2879,37.5138,37.7220
4.78630E3,37.2879,37.5138,37.7220
4.89779E3,37.2879,37.5138,37.7220
5.01187E3,37.2879,37.5138,37.7220
5.12861E3,37.2879,37.5138,37.7220
5.24807E3,37.2879,37.5138,37.7220
5.37032E3,37.2879,37.5138,37.7220
5.49541E3,37.2879,37.5138,37.7220
5.62341E3,37.2879,37.5138,37.7220
5.75440E3,37.2879,37.5138,37.7220
5.88844E3,37.2879,37.5138,37.7220
6.02560E3,37.2879,37.5138,37.7220
6.16595E3,37.2879,37.5138,37.7220
6.30957E3,37.2879,37.5138,37.7220
6.45654E3,37.2879,37.5138,37.7220
6.60693E3,37.2879,37.5138,37.7220
6.76083E3,37.2879,37.5138,37.7220
6.91831E3,37.2879,37.5138,37.7220
7.07946E3,37.2879,37.5138,37.7220
7.24436E3,37.2879,37.5138,37.7220
7.41310E3,37.2879,37.5138,37.7220
7.58578E3,37.2879,37.5138,37.7220
7.76247E3,37.2879,37.5138,37.7220
7.94328E3,37.2879,37.5138,37.7220
8.12831E3,37.2879,37.5138,37.7220
8.31764E3,37.2879,37.5138,37.7220
8.51138E3,37.2879,37.5138,37.7220
8.70964E3,37.2879,37.5138,37.7220
8.91251E3,37.2879,37.5138,37.7220
9.12011E3,37.2879,37.5138,37.7220
9.33254E3,37.2879,37.5138,37.7220
9.54993E3,37.2879,37.5138,37.7220
9.77237E3,37.2879,37.5138,37.7220
10.0000E3,37.2879,37.5138,37.7220
10.2329E3,37.2879,37.5138,37.7220
10.4713E3,37.2879,37.5138,37.7220
10.7152E3,37.2879,37.5138,37.7220
10.9648E3,37.2879,37.5138,37.7220
11.2202E3,37.2879,37.5138,37.7220
11.4815E3,37.2879,37.5138,37.7220
11.7490E3,37.2879,37.5138,37.7220
12.0226E3,37.2879,37.5138,37.7220
12.3027E3,37.2879,37.5138,37.7220
12.5893E3,37.2879,37.5138,37.7220
12.8825E3,37.2879,37.5138,37.7220
13.1826E3,37.2879,37.5138,37.7220
13.4896E3,37.2879,37.5138,37.7220
13.8038E3,37.2879,37.5138,37.7220
14.1254E3,37.2879,37.5138,37.7220
14.4544E3,37.2879,37.5138,37.7220
14.7911E3,37.2879,37.5138,37.7220
15.1356E3,37.2879,37.5138,37.7220
15.4882E3,37.2879,37.5138,37.7220
15.8489E3,37.2879,37.5138,37.7220
16.2181E3,37.2879,37.5138,37.7220
16.5959E3,37.2879,37.5138,37.7220
16.9824E3,37.2879,37.5138,37.7220
17.3780E3,37.2879,37.5138,37.7220
17.7828E3,37.2879,37.5138,37.7220
18.1970E3,37.2879,37.5138,37.7220
18.6209E3,37.2879,37.5138,37.7220
19.0546E3,37.2879,37.5138,37.7220
19.4984E3,37.2879,37.5138,37.7220
19.9526E3,37.2879,37.5138,37.7220
20.4174E3,37.2879,37.5138,37.7220
20.8930E3,37.2879,37.5138,37.7220
21.3796E3,37.2879,37.5138,37.7220
21.8776E3,37.2879,37.5138,37.7220
22.3872E3,37.2879,37.5138,37.7220
22.9087E3,37.2879,37.5138,37.7220
23.4423E3,37.2879,37.5138,37.7220
23.9883E3,37.2879,37.5138,37.7220
24.5471E3,37.2879,37.5138,37.7220
25.1189E3,37.2879,37.5138,37.7220
25.7040E3,37.2879,37.5138,37.7220
26.3027E3,37.2879,37.5138,37.7220
26.9153E3,37.2879,37.5138,37.7220
27.5423E3,37.2879,37.5138,37.7220
28.1838E3,37.2879,37.5138,37.7220
28.8403E3,37.2879,37.5138,37.7220
29.5121E3,37.2879,37.5138,37.7220
30.1995E3,37.2879,37.5138,37.7220
30.9030E3,37.2879,37.5138,37.7220
31.6228E3,37.2879,37.5138,37.7220
32.3594E3,37.2879,37.5137,37.7220
33.1131E3,37.2879,37.5137,37.7220
33.8844E3,37.2879,37.5137,37.7220
34.6737E3,37.2879,37.5137,37.7220
35.4813E3,37.2879,37.5137,37.7220
36.3078E3,37.2879,37.5137,37.7220
37.1535E3,37.2879,37.5137,37.7220
38.0189E3,37.2879,37.5137,37.7220
38.9045E3,37.2879,37.5137,37.7220
39.8107E3,37.2879,37.5137,37.7220
40.7380E3,37.2878,37.5137,37.7220
41.6869E3,37.2878,37.5137,37.7220
42.6580E3,37.2878,37.5137,37.7220
43.6516E3,37.2878,37.5137,37.7220
44.6684E3,37.2878,37.5137,37.7220
45.7088E3,37.2878,37.5137,37.7220
46.7735E3,37.2878,37.5137,37.7220
47.8630E3,37.2878,37.5137,37.7220
48.9779E3,37.2878,37.5137,37.7220
50.1187E3,37.2878,37.5137,37.7220
51.2861E3,37.2878,37.5137,37.7220
52.4807E3,37.2878,37.5137,37.7220
53.7032E3,37.2878,37.5137,37.7219
54.9541E3,37.2878,37.5137,37.7219
56.2341E3,37.2878,37.5137,37.7219
57.5440E3,37.2878,37.5137,37.7219
58.8844E3,37.2878,37.5137,37.7219
60.2560E3,37.2878,37.5137,37.7219
61.6595E3,37.2878,37.5137,37.7219
63.0957E3,37.2878,37.5137,37.7219
64.5654E3,37.2878,37.5136,37.7219
66.0693E3,37.2878,37.5136,37.7219
67.6083E3,37.2878,37.5136,37.7219
69.1831E3,37.2877,37.5136,37.7219
70.7946E3,37.2877,37.5136,37.7219
72.4436E3,37.2877,37.5136,37.7219
74.1310E3,37.2877,37.5136,37.7219
75.8578E3,37.2877,37.5136,37.7219
77.6247E3,37.2877,37.5136,37.7218
79.4328E3,37.2877,37.5136,37.7218
81.2831E3,37.2877,37.5136,37.7218
83.1764E3,37.2877,37.5136,37.7218
85.1138E3,37.2877,37.5135,37.7218
87.0964E3,37.2877,37.5135,37.7218
89.1251E3,37.2876,37.5135,37.7218
91.2011E3,37.2876,37.5135,37.7218
93.3254E3,37.2876,37.5135,37.7217
95.4993E3,37.2876,37.5135,37.7217
97.7237E3,37.2876,37.5135,37.7217
100.000E3,37.2876,37.5135,37.7217
102.329E3,37.2876,37.5134,37.7217
104.713E3,37.2875,37.5134,37.7217
107.152E3,37.2875,37.5134,37.7217
109.648E3,37.2875,37.5134,37.7216
112.202E3,37.2875,37.5134,37.7216
114.815E3,37.2875,37.5133,37.7216
117.490E3,37.2875,37.5133,37.7216
120.226E3,37.2874,37.5133,37.7216
123.027E3,37.2874,37.5133,37.7215
125.893E3,37.2874,37.5133,37.7215
128.825E3,37.2874,37.5132,37.7215
131.826E3,37.2873,37.5132,37.7215
134.896E3,37.2873,37.5132,37.7214
138.038E3,37.2873,37.5131,37.7214
141.254E3,37.2873,37.5131,37.7214
144.544E3,37.2872,37.5131,37.7213
147.911E3,37.2872,37.5131,37.7213
151.356E3,37.2872,37.5130,37.7213
154.882E3,37.2871,37.5130,37.7212
158.489E3,37.2871,37.5129,37.7212
162.181E3,37.2870,37.5129,37.7211
165.959E3,37.2870,37.5129,37.7211
169.824E3,37.2870,37.5128,37.7211
173.780E3,37.2869,37.5128,37.7210
177.828E3,37.2869,37.5127,37.7210
181.970E3,37.2868,37.5127,37.7209
186.209E3,37.2868,37.5126,37.7209
190.546E3,37.2867,37.5126,37.7208
194.984E3,37.2867,37.5125,37.7207
199.526E3,37.2866,37.5125,37.7207
204.174E3,37.2865,37.5124,37.7206
208.930E3,37.2865,37.5123,37.7205
213.796E3,37.2864,37.5123,37.7205
218.776E3,37.2863,37.5122,37.7204
223.872E3,37.2863,37.5121,37.7203
229.087E3,37.2862,37.5120,37.7202
234.423E3,37.2861,37.5120,37.7202
239.883E3,37.2860,37.5119,37.7201
245.471E3,37.2859,37.5118,37.7200
251.189E3,37.2858,37.5117,37.7199
257.040E3,37.2857,37.5116,37.7198
263.027E3,37.2856,37.5115,37.7197
269.153E3,37.2855,37.5114,37.7196
275.423E3,37.2854,37.5113,37.7194
281.838E3,37.2853,37.5111,37.7193
288.403E3,37.2852,37.5110,37.7192
295.121E3,37.2851,37.5109,37.7191
301.995E3,37.2849,37.5107,37.7189
309.030E3,37.2848,37.5106,37.7188
316.228E3,37.2846,37.5104,37.7186
323.594E3,37.2845,37.5103,37.7185
331.131E3,37.2843,37.5101,37.7183
338.844E3,37.2841,37.5100,37.7181
346.737E3,37.2840,37.5098,37.7179
354.813E3,37.2838,37.5096,37.7177
363.078E3,37.2836,37.5094,37.7175
371.535E3,37.2834,37.5092,37.7173
380.189E3,37.2832,37.5090,37.7171
389.045E3,37.2830,37.5087,37.7169
398.107E3,37.2827,37.5085,37.7166
407.380E3,37.2825,37.5082,37.7163
416.869E3,37.2822,37.5080,37.7161
426.580E3,37.2820,37.5077,37.7158
436.516E3,37.2817,37.5074,37.7155
446.684E3,37.2814,37.5071,37.7152
457.088E3,37.2811,37.5068,37.7149
467.735E3,37.2807,37.5065,37.7145
478.630E3,37.2804,37.5061,37.7142
489.779E3,37.2801,37.5058,37.7138
501.187E3,37.2797,37.5054,37.7134
512.861E3,37.2793,37.5050,37.7130
524.807E3,37.2789,37.5046,37.7126
537.032E3,37.2785,37.5042,37.7121
549.541E3,37.2780,37.5037,37.7117
562.341E3,37.2776,37.5032,37.7112
575.440E3,37.2771,37.5027,37.7107
588.844E3,37.2766,37.5022,37.7101
602.560E3,37.2760,37.5017,37.7096
616.595E3,37.2755,37.5011,37.7090
630.957E3,37.2749,37.5005,37.7084
645.654E3,37.2743,37.4999,37.7077
660.693E3,37.2736,37.4992,37.7071
676.083E3,37.2730,37.4985,37.7064
691.831E3,37.2723,37.4978,37.7056
707.946E3,37.2715,37.4971,37.7048
724.436E3,37.2707,37.4963,37.7040
741.310E3,37.2699,37.4955,37.7032
758.578E3,37.2691,37.4946,37.7023
776.247E3,37.2682,37.4937,37.7014
794.328E3,37.2673,37.4927,37.7004
812.831E3,37.2663,37.4917,37.6994
831.764E3,37.2653,37.4907,37.6983
851.138E3,37.2642,37.4896,37.6972
870.964E3,37.2631,37.4885,37.6960
891.251E3,37.2619,37.4873,37.6948
912.011E3,37.2607,37.4860,37.6935
933.254E3,37.2594,37.4847,37.6922
954.993E3,37.2581,37.4834,37.6908
977.237E3,37.2567,37.4819,37.6893
1.00000E6,37.2552,37.4804,37.6878
1.02329E6,37.2537,37.4789,37.6861
1.04713E6,37.2521,37.4772,37.6844
